; CSV, generated by libsigrok4DSL 0.2.0 on Wed Apr 17 14:33:03 2019
; Channels (3/16)
; Sample rate: 1 MHz
; Sample count: 9.562816M Samples
Time(s), 0: RX, 1: TX, 2: DE
0,1,1,0
0.942732,0,1,0
0.942836,1,1,0
0.943772,0,1,0
0.943876,1,1,0
0.944813,0,1,0
0.944917,1,1,0
0.945853,0,1,0
0.945957,1,1,0
0.946893,0,1,0
0.946997,1,1,0
0.947933,0,1,0
0.948037,1,1,0
0.948973,0,1,0
0.949077,1,1,0
0.950013,0,1,0
0.950117,1,1,0
0.951054,0,1,0
0.95199,1,1,0
0.952094,0,1,0
0.952198,1,1,0
0.953134,0,1,0
0.953238,1,1,0
0.953342,0,1,0
0.953446,1,1,0
0.95355,0,1,0
0.953758,1,1,0
0.953862,0,1,0
0.953966,1,1,0
0.954174,0,1,0
0.954278,1,1,0
0.954382,0,1,0
0.95511,1,1,0
0.955214,0,1,0
0.955318,1,1,0
0.955735,0,1,0
0.956151,1,1,0
0.956255,0,1,0
0.956775,1,1,0
0.956879,0,1,0
0.957191,1,1,0
0.957295,0,1,0
0.957503,1,1,0
0.957607,0,1,0
0.958231,1,1,0
0.958335,0,1,0
0.958439,1,1,0
0.958543,0,1,0
0.958647,1,1,0
0.958959,0,1,0
0.959271,1,1,0
0.959375,0,1,0
0.959479,1,1,0
0.959895,0,1,0
0.960311,1,1,0
0.960415,0,1,0
0.960519,1,1,0
0.960623,0,1,0
0.960831,1,1,0
0.961039,0,1,0
0.961352,1,1,0
0.961456,0,1,0
0.962392,1,1,0
0.962496,0,1,0
0.963432,1,1,0
0.963536,0,1,0
0.964472,1,1,0
0.964576,0,1,0
0.965512,1,1,0
0.965616,0,1,0
0.966553,1,1,0
0.966657,0,1,0
0.967593,1,1,0
0.967697,0,1,0
0.968633,1,1,0
0.968737,0,1,0
0.969673,1,1,0
0.969777,0,1,0
0.970713,1,1,0
0.970817,0,1,0
0.971753,1,1,0
0.971857,0,1,0
0.972794,1,1,0
0.972898,0,1,0
0.973002,1,1,0
0.973106,0,1,0
0.973834,1,1,0
0.973938,0,1,0
0.974146,1,1,0
0.97425,0,1,0
0.974666,1,1,0
0.97477,0,1,0
0.974874,1,1,0
0.974978,0,1,0
0.975186,1,1,0
0.97529,0,1,0
0.975706,1,1,0
0.97581,0,1,0
0.975914,1,1,0
0.976018,0,1,0
0.976226,1,1,0
0.97633,0,1,0
0.976954,1,1,0
0.977058,0,1,0
0.977579,1,1,0
0.977683,0,1,0
0.977787,1,1,0
0.977891,0,1,0
0.977995,1,1,0
0.978099,0,1,0
0.978203,1,1,0
0.978515,0,1,0
0.978827,1,1,0
0.978931,0,1,0
0.979035,1,1,0
0.979139,0,1,0
0.979243,1,1,0
0.980179,0,1,0
0.980387,1,1,0
0.980491,0,1,0
0.981115,1,1,0
0.981219,0,1,0
0.981635,1,1,0
0.981739,0,1,0
0.981843,1,1,0
0.981947,0,1,0
0.982155,1,1,0
0.982259,0,1,0
0.982571,1,1,0
0.982675,0,1,0
0.983196,1,1,0
0.9833,0,1,0
0.984236,1,1,0
0.98434,0,1,0
0.985276,1,1,0
0.98538,0,1,0
0.986316,1,1,0
0.98642,0,1,0
0.987356,1,1,0
0.98746,0,1,0
0.987564,1,1,0
0.987668,0,1,0
0.987876,1,1,0
0.98798,0,1,0
0.988084,1,1,0
0.988188,0,1,0
0.988397,1,1,0
0.988501,0,1,0
0.988605,1,1,0
0.988813,0,1,0
0.988917,1,1,0
0.989021,0,1,0
0.989437,1,1,0
0.989541,0,1,0
0.989645,1,1,0
0.989853,0,1,0
0.990477,1,1,0
0.990581,0,1,0
0.990685,1,1,0
0.990893,0,1,0
0.990997,1,1,0
0.991101,0,1,0
0.991413,1,1,0
0.991622,0,1,0
0.991634,1,1,0
1.000062,1,1,1
1.000065,1,0,1
1.000077,0,0,1
1.000169,0,1,1
1.001107,0,0,1
1.002044,0,1,1
1.002149,0,0,1
1.002253,0,1,1
1.00319,0,0,1
1.003295,0,1,1
1.003399,0,0,1
1.003503,0,1,1
1.003607,0,0,1
1.003815,0,1,1
1.00392,0,0,1
1.004024,0,1,1
1.004232,0,0,1
1.004336,0,1,1
1.004441,0,0,1
1.00517,0,1,1
1.005274,0,0,1
1.005795,0,1,1
1.005899,0,0,1
1.006212,0,1,1
1.006316,0,0,1
1.006941,0,1,1
1.007045,0,0,1
1.007254,0,1,1
1.007358,0,0,1
1.007566,0,1,1
1.007774,0,0,1
1.008191,0,1,1
1.0084,0,0,1
1.008608,0,1,1
1.008712,0,0,1
1.009337,0,1,1
1.009441,0,0,1
1.00965,0,1,1
1.009858,0,0,1
1.010379,0,1,1
1.010483,0,0,1
1.010587,0,1,1
1.010692,0,0,1
1.011421,0,1,1
1.011525,0,0,1
1.011629,0,1,1
1.011733,0,0,1
1.012463,0,1,1
1.012567,0,0,1
1.012671,0,1,1
1.012775,0,0,1
1.012879,1,1,1
1.01288,0,1,1
1.012984,0,0,1
1.013192,0,1,1
1.0134,0,0,1
1.013505,0,1,1
1.015014,1,1,0
1.016586,0,1,0
1.01669,1,1,0
1.017626,0,1,0
1.01773,1,1,0
1.018666,0,1,0
1.01877,1,1,0
1.019706,0,1,0
1.01981,1,1,0
1.020746,0,1,0
1.02085,1,1,0
1.021787,0,1,0
1.021891,1,1,0
1.022827,0,1,0
1.022931,1,1,0
1.023867,0,1,0
1.023971,1,1,0
1.024907,0,1,0
1.025843,1,1,0
1.025947,0,1,0
1.026051,1,1,0
1.026988,0,1,0
1.027092,1,1,0
1.027196,0,1,0
1.0273,1,1,0
1.027404,0,1,0
1.027612,1,1,0
1.027716,0,1,0
1.02782,1,1,0
1.028028,0,1,0
1.028132,1,1,0
1.028236,0,1,0
1.028964,1,1,0
1.029068,0,1,0
1.029692,1,1,0
1.029796,0,1,0
1.029974,1,1,1
1.029975,0,1,0
1.029988,1,1,1
1.029989,0,1,0
1.030004,1,1,0
1.030108,0,1,0
1.030628,1,1,0
1.030732,0,1,0
1.031044,1,1,0
1.031148,0,1,0
1.031252,1,1,0
1.031356,0,1,0
1.032085,1,1,0
1.032189,0,1,0
1.032293,1,1,0
1.032397,0,1,0
1.033125,1,1,0
1.033229,0,1,0
1.033437,1,1,0
1.033645,0,1,0
1.034061,1,1,0
1.034269,0,1,0
1.034373,1,1,0
1.034477,0,1,0
1.035205,1,1,0
1.035309,0,1,0
1.035517,1,1,0
1.035933,0,1,0
1.036037,1,1,0
1.036141,0,1,0
1.036245,1,1,0
1.03635,0,1,0
1.036363,1,1,0
1.066099,0,1,0
1.066203,1,1,0
1.067139,0,1,0
1.067243,1,1,0
1.068179,0,1,0
1.068283,1,1,0
1.069219,0,1,0
1.069323,1,1,0
1.07026,0,1,0
1.070364,1,1,0
1.0713,0,1,0
1.071404,1,1,0
1.07234,0,1,0
1.072444,1,1,0
1.07338,0,1,0
1.073484,1,1,0
1.07442,0,1,0
1.075357,1,1,0
1.075461,0,1,0
1.075565,1,1,0
1.076501,0,1,0
1.076605,1,1,0
1.076709,0,1,0
1.076813,1,1,0
1.076917,0,1,0
1.077125,1,1,0
1.077229,0,1,0
1.077333,1,1,0
1.077541,0,1,0
1.077645,1,1,0
1.077749,0,1,0
1.078477,1,1,0
1.078581,0,1,0
1.078685,1,1,0
1.079101,0,1,0
1.079517,1,1,0
1.079621,0,1,0
1.080141,1,1,0
1.080245,0,1,0
1.080557,1,1,0
1.080661,0,1,0
1.08087,1,1,0
1.080974,0,1,0
1.081598,1,1,0
1.081702,0,1,0
1.081806,1,1,0
1.08191,0,1,0
1.082014,1,1,0
1.082326,0,1,0
1.082638,1,1,0
1.082742,0,1,0
1.082846,1,1,0
1.083262,0,1,0
1.083678,1,1,0
1.083782,0,1,0
1.083886,1,1,0
1.08399,0,1,0
1.084198,1,1,0
1.084406,0,1,0
1.084718,1,1,0
1.084822,0,1,0
1.085446,1,1,0
1.08555,0,1,0
1.085758,1,1,0
1.085862,0,1,0
1.086799,1,1,0
1.086903,0,1,0
1.087839,1,1,0
1.087943,0,1,0
1.088879,1,1,0
1.088983,0,1,0
1.089919,1,1,0
1.090023,0,1,0
1.090959,1,1,0
1.091063,0,1,0
1.092,1,1,0
1.092104,0,1,0
1.09304,1,1,0
1.093144,0,1,0
1.09408,1,1,0
1.094184,0,1,0
1.09512,1,1,0
1.095224,0,1,0
1.09616,1,1,0
1.096264,0,1,0
1.096368,1,1,0
1.096472,0,1,0
1.097201,1,1,0
1.097305,0,1,0
1.097513,1,1,0
1.097617,0,1,0
1.098033,1,1,0
1.098137,0,1,0
1.098241,1,1,0
1.098345,0,1,0
1.098553,1,1,0
1.098657,0,1,0
1.099073,1,1,0
1.099177,0,1,0
1.099281,1,1,0
1.099385,0,1,0
1.099593,1,1,0
1.099697,0,1,0
1.100321,1,1,0
1.100425,0,1,0
1.100945,1,1,0
1.101049,0,1,0
1.101153,1,1,0
1.101257,0,1,0
1.101361,1,1,0
1.101465,0,1,0
1.101569,1,1,0
1.101881,0,1,0
1.102193,1,1,0
1.102297,0,1,0
1.102401,1,1,0
1.102505,0,1,0
1.10261,1,1,0
1.103546,0,1,0
1.103754,1,1,0
1.103858,0,1,0
1.104482,1,1,0
1.104586,0,1,0
1.105002,1,1,0
1.105106,0,1,0
1.10521,1,1,0
1.105314,0,1,0
1.105522,1,1,0
1.105626,0,1,0
1.105938,1,1,0
1.106042,0,1,0
1.106562,1,1,0
1.106666,0,1,0
1.107602,1,1,0
1.107706,0,1,0
1.108643,1,1,0
1.108747,0,1,0
1.109683,1,1,0
1.109787,0,1,0
1.110723,1,1,0
1.110827,0,1,0
1.110931,1,1,0
1.111035,0,1,0
1.111243,1,1,0
1.111347,0,1,0
1.111451,1,1,0
1.111555,0,1,0
1.111763,1,1,0
1.111867,0,1,0
1.111971,1,1,0
1.112179,0,1,0
1.112283,1,1,0
1.112387,0,1,0
1.112803,1,1,0
1.112907,0,1,0
1.113011,1,1,0
1.113219,0,1,0
1.113844,1,1,0
1.113948,0,1,0
1.114052,1,1,0
1.11426,0,1,0
1.114364,1,1,0
1.114468,0,1,0
1.114572,1,1,0
1.114676,0,1,0
1.11478,1,1,0
1.114989,0,1,0
1.115002,1,1,0
1.565183,0,1,0
1.565287,1,1,0
1.566223,0,1,0
1.567159,1,1,0
1.567263,0,1,0
1.567367,1,1,0
1.568303,0,1,0
1.568407,1,1,0
1.568511,0,1,0
1.568615,1,1,0
1.568719,0,1,0
1.568927,1,1,0
1.569031,0,1,0
1.569135,1,1,0
1.569343,0,1,0
1.570279,1,1,0
1.570383,0,1,0
1.570904,1,1,0
1.571008,0,1,0
1.571216,1,1,0
1.571424,0,1,0
1.571944,1,1,0
1.572048,0,1,0
1.57236,1,1,0
1.572464,0,1,0
1.572672,1,1,0
1.572776,0,1,0
1.572984,1,1,0
1.573088,0,1,0
1.573192,1,1,0
1.573504,0,1,0
1.573608,1,1,0
1.573712,0,1,0
1.57444,1,1,0
1.574544,0,1,0
1.574752,1,1,0
1.574856,0,1,0
1.575064,1,1,0
1.575168,0,1,0
1.575272,1,1,0
1.575584,0,1,0
1.575792,1,1,0
1.575896,0,1,0
1.576521,1,1,0
1.576625,0,1,0
1.576833,1,1,0
1.576937,0,1,0
1.577041,1,1,0
1.577145,0,1,0
1.577249,1,1,0
1.577666,0,1,0
1.577678,1,1,0
1.884937,0,1,0
1.885041,1,1,0
1.885977,0,1,0
1.886914,1,1,0
1.887018,0,1,0
1.887122,1,1,0
1.888058,0,1,0
1.888162,1,1,0
1.888266,0,1,0
1.88837,1,1,0
1.888474,0,1,0
1.888682,1,1,0
1.888786,0,1,0
1.88889,1,1,0
1.889098,0,1,0
1.890034,1,1,0
1.890138,0,1,0
1.890762,1,1,0
1.89097,0,1,0
1.891074,1,1,0
1.891178,0,1,0
1.891699,1,1,0
1.891803,0,1,0
1.892115,1,1,0
1.892219,0,1,0
1.892531,1,1,0
1.892635,0,1,0
1.893155,1,1,0
1.893259,0,1,0
1.893363,1,1,0
1.893467,0,1,0
1.894195,1,1,0
1.894299,0,1,0
1.894403,1,1,0
1.895339,0,1,0
1.895547,1,1,0
1.895651,0,1,0
1.896275,1,1,0
1.896379,0,1,0
1.896483,1,1,0
1.896587,0,1,0
1.896795,1,1,0
1.897003,0,1,0
1.897316,1,1,0
1.89742,0,1,0
1.897433,1,1,0
1.906834,0,1,0
1.906934,1,1,0
1.90787,0,1,0
1.908806,1,1,0
1.908909,0,1,0
1.909014,1,1,0
1.90995,0,1,0
1.910054,1,1,0
1.910157,0,1,0
1.910262,1,1,0
1.910365,0,1,0
1.910574,1,1,0
1.910677,0,1,0
1.910782,1,1,0
1.910989,0,1,0
1.911926,1,1,0
1.912029,0,1,0
1.91255,1,1,0
1.912653,0,1,0
1.912966,1,1,0
1.913069,0,1,0
1.913694,1,1,0
1.913902,0,1,0
1.914006,1,1,0
1.914109,0,1,0
1.914422,1,1,0
1.914525,0,1,0
1.915046,1,1,0
1.915149,0,1,0
1.915254,1,1,0
1.915357,0,1,0
1.916086,1,1,0
1.916189,0,1,0
1.916294,1,1,0
1.917231,0,1,0
1.917438,1,1,0
1.917541,0,1,0
1.918167,1,1,0
1.91827,0,1,0
1.918375,1,1,0
1.918478,0,1,0
1.918687,1,1,0
1.918894,0,1,0
1.919207,1,1,0
1.922176,0,1,0
1.92228,1,1,0
1.923216,0,1,0
1.924152,1,1,0
1.924257,0,1,0
1.924361,1,1,0
1.925297,0,1,0
1.925401,1,1,0
1.925505,0,1,0
1.925609,1,1,0
1.925713,0,1,0
1.925921,1,1,0
1.926025,0,1,0
1.926129,1,1,0
1.926337,0,1,0
1.927273,1,1,0
1.927377,0,1,0
1.928001,1,1,0
1.928209,0,1,0
1.928313,1,1,0
1.928417,0,1,0
1.928937,1,1,0
1.929041,0,1,0
1.929353,1,1,0
1.929457,0,1,0
1.929666,1,1,0
1.929874,0,1,0
1.930394,1,1,0
1.930498,0,1,0
1.930602,1,1,0
1.930706,0,1,0
1.931434,1,1,0
1.931538,0,1,0
1.931746,1,1,0
1.93185,0,1,0
1.931954,1,1,0
1.932058,0,1,0
1.932474,1,1,0
1.932578,0,1,0
1.932682,1,1,0
1.932786,0,1,0
1.933514,1,1,0
1.933618,0,1,0
1.933826,1,1,0
1.934034,0,1,0
1.934242,1,1,0
1.934346,0,1,0
1.934554,1,1,0
1.934659,0,1,0
1.934672,1,1,0
1.946875,0,1,0
1.946977,1,1,0
1.947913,0,1,0
1.948849,1,1,0
1.948952,0,1,0
1.949057,1,1,0
1.949993,0,1,0
1.950097,1,1,0
1.9502,0,1,0
1.950305,1,1,0
1.950408,0,1,0
1.950617,1,1,0
1.95072,0,1,0
1.950825,1,1,0
1.951032,0,1,0
1.951969,1,1,0
1.952072,0,1,0
1.952593,1,1,0
1.952696,0,1,0
1.953009,1,1,0
1.953112,0,1,0
1.953737,1,1,0
1.953945,0,1,0
1.954049,1,1,0
1.954152,0,1,0
1.954361,1,1,0
1.954569,0,1,0
1.955089,1,1,0
1.955192,0,1,0
1.955297,1,1,0
1.9554,0,1,0
1.956129,1,1,0
1.956232,0,1,0
1.956441,1,1,0
1.956544,0,1,0
1.956649,1,1,0
1.956752,0,1,0
1.957169,1,1,0
1.957272,0,1,0
1.957377,1,1,0
1.95748,0,1,0
1.958209,1,1,0
1.958312,0,1,0
1.958521,1,1,0
1.958729,0,1,0
1.958938,1,1,0
1.959041,0,1,0
1.95925,1,1,0
1.962536,0,1,0
1.96264,1,1,0
1.963576,0,1,0
1.964512,1,1,0
1.964616,0,1,0
1.96472,1,1,0
1.965656,0,1,0
1.96576,1,1,0
1.965864,0,1,0
1.965968,1,1,0
1.966072,0,1,0
1.96628,1,1,0
1.966384,0,1,0
1.966488,1,1,0
1.966696,0,1,0
1.967632,1,1,0
1.967736,0,1,0
1.968361,1,1,0
1.968569,0,1,0
1.968673,1,1,0
1.968777,0,1,0
1.969297,1,1,0
1.969401,0,1,0
1.969713,1,1,0
1.969817,0,1,0
1.969921,1,1,0
1.970025,0,1,0
1.970753,1,1,0
1.970857,0,1,0
1.971169,1,1,0
1.971273,0,1,0
1.971793,1,1,0
1.971897,0,1,0
1.972105,1,1,0
1.972209,0,1,0
1.972833,1,1,0
1.972937,0,1,0
1.97325,1,1,0
1.973354,0,1,0
1.973666,1,1,0
1.973978,0,1,0
1.974394,1,1,0
1.974498,0,1,0
1.974914,1,1,0
1.975018,0,1,0
1.975226,1,1,0
1.97533,0,1,0
1.975434,1,1,0
1.975538,0,1,0
1.975746,1,1,0
1.976058,0,1,0
1.976266,1,1,0
1.97637,0,1,0
1.976994,1,1,0
1.977098,0,1,0
1.977306,1,1,0
1.97741,0,1,0
1.977618,1,1,0
1.977826,0,1,0
1.97793,1,1,0
1.978139,0,1,0
1.978152,1,1,0
1.988062,0,1,0
1.988164,1,1,0
1.9891,0,1,0
1.990036,1,1,0
1.990139,0,1,0
1.990244,1,1,0
1.99118,0,1,0
1.991284,1,1,0
1.991387,0,1,0
1.991492,1,1,0
1.991595,0,1,0
1.991804,1,1,0
1.991907,0,1,0
1.992012,1,1,0
1.992219,0,1,0
1.993156,1,1,0
1.993259,0,1,0
1.99378,1,1,0
1.993883,0,1,0
1.994196,1,1,0
1.994299,0,1,0
1.994924,1,1,0
1.995132,0,1,0
1.995236,1,1,0
1.995339,0,1,0
1.995444,1,1,0
1.995547,0,1,0
1.996276,1,1,0
1.996379,0,1,0
1.996588,1,1,0
1.996691,0,1,0
1.997316,1,1,0
1.997419,0,1,0
1.997836,1,1,0
1.997939,0,1,0
1.998356,1,1,0
1.998459,0,1,0
1.998668,1,1,0
1.998771,0,1,0
1.998876,1,1,0
1.998979,0,1,0
1.999188,1,1,0
1.9995,0,1,0
1.999604,1,1,0
1.999707,0,1,0
2.000437,1,1,0
2.00054,0,1,0
2.000749,1,1,0
2.000852,0,1,0
2.000957,1,1,0
2.00106,0,1,0
2.001165,1,1,0
3.589082,0,1,0
3.589186,1,1,0
3.590123,0,1,0
3.591059,1,1,0
3.591163,0,1,0
3.591267,1,1,0
3.592203,0,1,0
3.592307,1,1,0
3.592411,0,1,0
3.592515,1,1,0
3.592619,0,1,0
3.592827,1,1,0
3.592931,0,1,0
3.593035,1,1,0
3.593243,0,1,0
3.594179,1,1,0
3.594283,0,1,0
3.594804,1,1,0
3.594908,0,1,0
3.595116,1,1,0
3.595324,0,1,0
3.595844,1,1,0
3.595948,0,1,0
3.59626,1,1,0
3.596364,0,1,0
3.596572,1,1,0
3.596676,0,1,0
3.596884,1,1,0
3.596988,0,1,0
3.597092,1,1,0
3.597404,0,1,0
3.597508,1,1,0
3.597612,0,1,0
3.59834,1,1,0
3.598444,0,1,0
3.598652,1,1,0
3.598756,0,1,0
3.598964,1,1,0
3.599068,0,1,0
3.599172,1,1,0
3.599484,0,1,0
3.599692,1,1,0
3.599796,0,1,0
3.600421,1,1,0
3.600525,0,1,0
3.600733,1,1,0
3.600837,0,1,0
3.600941,1,1,0
3.601045,0,1,0
3.601149,1,1,0
3.601566,0,1,0
3.601578,1,1,0
3.917055,0,1,0
3.917159,1,1,0
3.918095,0,1,0
3.919031,1,1,0
3.919135,0,1,0
3.919239,1,1,0
3.920175,0,1,0
3.920279,1,1,0
3.920383,0,1,0
3.920487,1,1,0
3.920591,0,1,0
3.920799,1,1,0
3.920903,0,1,0
3.921007,1,1,0
3.921215,0,1,0
3.922152,1,1,0
3.922256,0,1,0
3.92288,1,1,0
3.923088,0,1,0
3.923192,1,1,0
3.923296,0,1,0
3.923816,1,1,0
3.92392,0,1,0
3.924232,1,1,0
3.924336,0,1,0
3.92444,1,1,0
3.924752,0,1,0
3.925272,1,1,0
3.925376,0,1,0
3.926312,1,1,0
3.926416,0,1,0
3.92652,1,1,0
3.926624,0,1,0
3.927353,1,1,0
3.927457,0,1,0
3.927769,1,1,0
3.928081,0,1,0
3.928393,1,1,0
3.928498,0,1,0
3.92851,1,1,0
3.94819,0,1,0
3.948291,1,1,0
3.949227,0,1,0
3.950163,1,1,0
3.950266,0,1,0
3.950371,1,1,0
3.951307,0,1,0
3.951411,1,1,0
3.951514,0,1,0
3.951619,1,1,0
3.951722,0,1,0
3.951931,1,1,0
3.952034,0,1,0
3.952139,1,1,0
3.952347,0,1,0
3.953283,1,1,0
3.953386,0,1,0
3.953907,1,1,0
3.95401,0,1,0
3.954323,1,1,0
3.954426,0,1,0
3.955051,1,1,0
3.955259,0,1,0
3.955363,1,1,0
3.955466,0,1,0
3.955571,1,1,0
3.955883,0,1,0
3.956403,1,1,0
3.956506,0,1,0
3.956611,1,1,0
3.957027,0,1,0
3.957443,1,1,0
3.957547,0,1,0
3.957755,1,1,0
3.957859,0,1,0
3.957964,1,1,0
3.958067,0,1,0
3.958484,1,1,0
3.958587,0,1,0
3.959524,1,1,0
3.959627,0,1,0
3.960564,1,1,0
3.960667,0,1,0
3.961604,1,1,0
3.961707,0,1,0
3.961812,1,1,0
3.962436,0,1,0
3.96254,1,1,0
3.962747,0,1,0
3.962852,1,1,0
3.963164,0,1,0
3.963684,1,1,0
3.963787,0,1,0
3.964204,1,1,0
3.964307,0,1,0
3.964724,1,1,0
3.964827,0,1,0
3.965764,1,1,0
3.965867,0,1,0
3.966804,1,1,0
3.966907,0,1,0
3.967844,1,1,0
3.967947,0,1,0
3.968884,1,1,0
3.968987,0,1,0
3.969924,1,1,0
3.970027,0,1,0
3.970132,1,1,0
3.97034,0,1,0
3.970444,1,1,0
3.970547,0,1,0
3.970965,1,1,0
3.971068,0,1,0
3.971172,1,1,0
3.971588,0,1,0
3.972005,1,1,0
3.972108,0,1,0
3.972213,1,1,0
3.972316,0,1,0
3.972525,1,1,0
3.972732,0,1,0
3.973045,1,1,0
3.973148,0,1,0
3.973357,1,1,0
3.97346,0,1,0
3.974085,1,1,0
3.974188,0,1,0
3.974397,1,1,0
3.974604,0,1,0
3.974709,1,1,0
3.974916,0,1,0
3.975125,1,1,0
5.105265,0,1,0
5.105369,1,1,0
5.106305,0,1,0
5.106409,1,1,0
5.107345,0,1,0
5.107449,1,1,0
5.108386,0,1,0
5.10849,1,1,0
5.109426,0,1,0
5.10953,1,1,0
5.110466,0,1,0
5.11057,1,1,0
5.111506,0,1,0
5.11161,1,1,0
5.112546,0,1,0
5.11265,1,1,0
5.113587,0,1,0
5.114523,1,1,0
5.114627,0,1,0
5.114731,1,1,0
5.115667,0,1,0
5.115771,1,1,0
5.115875,0,1,0
5.115979,1,1,0
5.116083,0,1,0
5.116291,1,1,0
5.116395,0,1,0
5.116499,1,1,0
5.116707,0,1,0
5.116811,1,1,0
5.116915,0,1,0
5.117643,1,1,0
5.117747,0,1,0
5.117851,1,1,0
5.118267,0,1,0
5.118684,1,1,0
5.118788,0,1,0
5.119308,1,1,0
5.119412,0,1,0
5.119724,1,1,0
5.119828,0,1,0
5.120036,1,1,0
5.12014,0,1,0
5.120764,1,1,0
5.120868,0,1,0
5.120972,1,1,0
5.121076,0,1,0
5.12118,1,1,0
5.121492,0,1,0
5.121804,1,1,0
5.121908,0,1,0
5.122012,1,1,0
5.122428,0,1,0
5.122844,1,1,0
5.122948,0,1,0
5.123052,1,1,0
5.123156,0,1,0
5.123364,1,1,0
5.123572,0,1,0
5.123884,1,1,0
5.123989,0,1,0
5.124613,1,1,0
5.124717,0,1,0
5.124925,1,1,0
5.125029,0,1,0
5.125965,1,1,0
5.126069,0,1,0
5.127005,1,1,0
5.127109,0,1,0
5.128045,1,1,0
5.128149,0,1,0
5.129085,1,1,0
5.129189,0,1,0
5.130126,1,1,0
5.13023,0,1,0
5.131166,1,1,0
5.13127,0,1,0
5.132206,1,1,0
5.13231,0,1,0
5.133246,1,1,0
5.13335,0,1,0
5.134286,1,1,0
5.13439,0,1,0
5.135327,1,1,0
5.135431,0,1,0
5.135535,1,1,0
5.135639,0,1,0
5.136367,1,1,0
5.136471,0,1,0
5.136679,1,1,0
5.136783,0,1,0
5.137199,1,1,0
5.137303,0,1,0
5.137407,1,1,0
5.137511,0,1,0
5.137719,1,1,0
5.137823,0,1,0
5.138239,1,1,0
5.138343,0,1,0
5.138447,1,1,0
5.138551,0,1,0
5.138759,1,1,0
5.138863,0,1,0
5.139487,1,1,0
5.139591,0,1,0
5.140111,1,1,0
5.140215,0,1,0
5.14032,1,1,0
5.140424,0,1,0
5.140528,1,1,0
5.140632,0,1,0
5.140736,1,1,0
5.141048,0,1,0
5.14136,1,1,0
5.141464,0,1,0
5.141568,1,1,0
5.141672,0,1,0
5.141776,1,1,0
5.142712,0,1,0
5.14292,1,1,0
5.143024,0,1,0
5.143648,1,1,0
5.143752,0,1,0
5.144168,1,1,0
5.144272,0,1,0
5.144376,1,1,0
5.14448,0,1,0
5.144688,1,1,0
5.144792,0,1,0
5.145104,1,1,0
5.145208,0,1,0
5.145729,1,1,0
5.145833,0,1,0
5.146769,1,1,0
5.146873,0,1,0
5.147809,1,1,0
5.147913,0,1,0
5.148849,1,1,0
5.148953,0,1,0
5.149889,1,1,0
5.149993,0,1,0
5.150097,1,1,0
5.150201,0,1,0
5.150409,1,1,0
5.150513,0,1,0
5.150617,1,1,0
5.150721,0,1,0
5.150929,1,1,0
5.151033,0,1,0
5.151138,1,1,0
5.151346,0,1,0
5.15145,1,1,0
5.151554,0,1,0
5.15197,1,1,0
5.152074,0,1,0
5.152178,1,1,0
5.152386,0,1,0
5.15301,1,1,0
5.153114,0,1,0
5.153218,1,1,0
5.153426,0,1,0
5.15353,1,1,0
5.153634,0,1,0
5.153738,1,1,0
5.153842,0,1,0
5.153946,1,1,0
5.154155,0,1,0
5.154168,1,1,0
5.604765,0,1,0
5.604869,1,1,0
5.605805,0,1,0
5.606741,1,1,0
5.606845,0,1,0
5.606949,1,1,0
5.607885,0,1,0
5.607989,1,1,0
5.608093,0,1,0
5.608197,1,1,0
5.608302,0,1,0
5.60851,1,1,0
5.608614,0,1,0
5.608718,1,1,0
5.608926,0,1,0
5.609862,1,1,0
5.609966,0,1,0
5.610486,1,1,0
5.61059,0,1,0
5.610798,1,1,0
5.611006,0,1,0
5.611526,1,1,0
5.61163,0,1,0
5.611942,1,1,0
5.612046,0,1,0
5.612254,1,1,0
5.612358,0,1,0
5.612566,1,1,0
5.61267,0,1,0
5.612774,1,1,0
5.613086,0,1,0
5.61319,1,1,0
5.613294,0,1,0
5.614023,1,1,0
5.614127,0,1,0
5.614335,1,1,0
5.614439,0,1,0
5.614647,1,1,0
5.614751,0,1,0
5.614855,1,1,0
5.615167,0,1,0
5.615375,1,1,0
5.615479,0,1,0
5.616103,1,1,0
5.616207,0,1,0
5.616415,1,1,0
5.616519,0,1,0
5.616623,1,1,0
5.616727,0,1,0
5.616831,1,1,0
5.617248,0,1,0
5.61726,1,1,0
7.129061,0,1,0
7.129165,1,1,0
7.130101,0,1,0
7.130205,1,1,0
7.131141,0,1,0
7.131245,1,1,0
7.132182,0,1,0
7.132286,1,1,0
7.133222,0,1,0
7.133326,1,1,0
7.134262,0,1,0
7.134366,1,1,0
7.135302,0,1,0
7.135406,1,1,0
7.136342,0,1,0
7.136446,1,1,0
7.137383,0,1,0
7.138319,1,1,0
7.138423,0,1,0
7.138527,1,1,0
7.139463,0,1,0
7.139567,1,1,0
7.139671,0,1,0
7.139775,1,1,0
7.139879,0,1,0
7.140087,1,1,0
7.140191,0,1,0
7.140295,1,1,0
7.140503,0,1,0
7.140607,1,1,0
7.140711,0,1,0
7.141439,1,1,0
7.141543,0,1,0
7.141647,1,1,0
7.142063,0,1,0
7.142479,1,1,0
7.142583,0,1,0
7.143104,1,1,0
7.143208,0,1,0
7.14352,1,1,0
7.143624,0,1,0
7.143832,1,1,0
7.143936,0,1,0
7.14456,1,1,0
7.144664,0,1,0
7.144768,1,1,0
7.144872,0,1,0
7.144976,1,1,0
7.145288,0,1,0
7.1456,1,1,0
7.145704,0,1,0
7.145808,1,1,0
7.146224,0,1,0
7.14664,1,1,0
7.146744,0,1,0
7.146848,1,1,0
7.146952,0,1,0
7.14716,1,1,0
7.147368,0,1,0
7.14768,1,1,0
7.147784,0,1,0
7.148409,1,1,0
7.148513,0,1,0
7.148721,1,1,0
7.148825,0,1,0
7.149761,1,1,0
7.149865,0,1,0
7.150801,1,1,0
7.150905,0,1,0
7.151841,1,1,0
7.151945,0,1,0
7.152881,1,1,0
7.152985,0,1,0
7.153922,1,1,0
7.154026,0,1,0
7.154962,1,1,0
7.155066,0,1,0
7.156002,1,1,0
7.156106,0,1,0
7.157042,1,1,0
7.157146,0,1,0
7.158082,1,1,0
7.158186,0,1,0
7.159123,1,1,0
7.159227,0,1,0
7.159331,1,1,0
7.159435,0,1,0
7.160163,1,1,0
7.160267,0,1,0
7.160475,1,1,0
7.160579,0,1,0
7.160995,1,1,0
7.161099,0,1,0
7.161203,1,1,0
7.161307,0,1,0
7.161515,1,1,0
7.161619,0,1,0
7.162035,1,1,0
7.162139,0,1,0
7.162243,1,1,0
7.162347,0,1,0
7.162555,1,1,0
7.162659,0,1,0
7.163283,1,1,0
7.163387,0,1,0
7.163907,1,1,0
7.164011,0,1,0
7.164115,1,1,0
7.164219,0,1,0
7.164323,1,1,0
7.164427,0,1,0
7.164844,1,1,0
7.164948,0,1,0
7.165156,1,1,0
